<Qucs Dataset 0.0.18>
<indep x 10>
  +5.00000000000e+00
  +1.00000000000e+01
  +1.50000000000e+01
  +2.00000000000e+01
  +2.50000000000e+01
  +3.00000000000e+01
  +3.50000000000e+01
  +4.00000000000e+01
  +4.50000000000e+01
  +5.00000000000e+01
</indep>
<dep V1.I x>
  -3.48000000000e+00
  -2.32000000000e+00
  -1.74000000000e+00
  -1.39200000000e+00
  -1.16000000000e+00
  -9.94285714286e-01
  -8.70000000000e-01
  -7.73333333333e-01
  -6.96000000000e-01
  -6.32727272727e-01
</dep>
<dep izeja.V x>
  +1.74000000000e+01
  +2.32000000000e+01
  +2.61000000000e+01
  +2.78400000000e+01
  +2.90000000000e+01
  +2.98285714286e+01
  +3.04500000000e+01
  +3.09333333333e+01
  +3.13200000000e+01
  +3.16363636364e+01
</dep>
<dep _net0.V x>
  +3.48000000000e+01
  +3.48000000000e+01
  +3.48000000000e+01
  +3.48000000000e+01
  +3.48000000000e+01
  +3.48000000000e+01
  +3.48000000000e+01
  +3.48000000000e+01
  +3.48000000000e+01
  +3.48000000000e+01
</dep>
